
**** 03/29/19 22:23:49 ********* PSpice 9.2 (Mar 2000) ******** ID# 1 ********

 * D:\GIT\MAI\viser\modeling\half_bridge\Shevcov\Nik\Sxema5IzmenitVuxod.sch


 ****     CIRCUIT DESCRIPTION


******************************************************************************




* Schematics Version 9.2
* Fri Mar 29 22:23:47 2019



** Analysis setup **
.tran 0 8ms 0 0.1ms
.OPTIONS ABSTOL=100u
.OPTIONS DIGINITSTATE=0
.OPTIONS ITL4=40
.OPTIONS VNTOL=100uV
.LIB "D:\GIT\MAI\viser\modeling\half_bridge\Shevcov\Vova_repalov_kurs_shev\Repalov\shemapokursovomubezkz.lib"


* From [PSPICE NETLIST] section of d:\Program Files\Orcad\PSpice\PSpice.ini:
.lib "D:\Program Files\Orcad\PSpice\UserLib\OPA_2.lib"
.lib "D:\Program Files\Orcad\PSpice\UserLib\MyLib.lib"
.lib "nom.lib"

.INC "Sxema5IzmenitVuxod.net"



**** INCLUDING Sxema5IzmenitVuxod.net ****
* Schematics Netlist *



D_D2         $N_0001 $N_0002 Dbreak 
R_R1         $N_0002 $N_0003  1  
D_D1         $N_0004 $N_0002 Dbreak 
D_D7         $N_0005 $N_0006 Dbreak 
R_R7         $N_0008 $N_0007  1k  
C_C1         0 $N_0003  22u  
D_D3         0 $N_0001 Dbreak 
D_D4         0 $N_0004 Dbreak 
C_C5         0 $N_0008  470p  
C_C6         0 $N_0009  100n  
D_D6         $N_0010 $N_0011 Dbreak 
C_C3         0 $N_0011  200n  
R_R4         $N_0013 $N_0012  25k  
D_D9         $N_0014 $N_0015 Dbreak 
X_U1         $N_0016 $N_0012 $N_0008 0 $N_0017 $N_0018 $N_0009 SG1844 
+ PARAMS: PERIOD=22.5u DEADTIME=2e-6
R_R9         $N_0017 $N_0020  5.1  
R_R5         0 $N_0013  2.5k  
D_D5         $N_0010 $N_0018 Dbreak 
R_R8         $N_0006 $N_0003  1k  
C_C7         $N_0006 $N_0003  1n  
M_M1         $N_0005 $N_0020 $N_0007 $N_0007 IRF840
R_R10         0 $N_0020  1k  
R_R11         0 $N_0007  2  
L_L1         $N_0003 $N_0005  0.083  
L_L3         $N_0015 0  270u  
R_R13         $N_0014 0  18  
L_L4         0 $N_0010  430u  
C_C10         $N_0014 0  24u  
C_C13         0 $N_0018  8.2u IC=1.551V 
L_L2         0 $N_0021  270u  
D_D8         $N_0021 $N_0022 Dbreak 
V_V1         $N_0004 $N_0001  
+SIN 0 310 50 0 0 0
R_R12         0 $N_0022  18  
R_R2         $N_0018 $N_0003  50k  
R_R3         $N_0011 $N_0013  6.3k  
C_C11         $N_0013 $N_0011  5n  
C_C4         $N_0023 $N_0016  1u  
R_R6         $N_0012 $N_0023  100k  
C_C9         0 $N_0022  24u  
Kn_K2         L_L1 L_L2 
+ L_L3 L_L4   0.9999

**** RESUMING Sxema5IzmenitVuxod.cir ****
.PROBE V(*) I(*) W(*) D(*) NOISE(*) 


.END


**** Generated AtoD and DtoA Interfaces ****

*
* Analog/Digital interface for node X_U1.x119.31
*
* Moving X_U1.x119.un1:OUT1 from analog node X_U1.x119.31 to new digital node X_U1.x119.31$DtoA
X$X_U1.x119.31_DtoA1
+ X_U1.x119.31$DtoA
+ X_U1.x119.31
+ X_U1.DPWR
+ X_U1.DGND
+ dtoa_s_o1
+       PARAMS: DRVH=   1.0000E+06 DRVL=  60.6   CAPACITANCE=   0     
*
* Analog/Digital interface for node X_U1.x119.33
*
* Moving X_U1.x119.un11:OUT1 from analog node X_U1.x119.33 to new digital node X_U1.x119.33$DtoA
X$X_U1.x119.33_DtoA1
+ X_U1.x119.33$DtoA
+ X_U1.x119.33
+ X_U1.DPWR
+ X_U1.DGND
+ dtoa_s_o1
+       PARAMS: DRVH=   1.0000E+06 DRVL=  60.6   CAPACITANCE=   0     
*
* Analog/Digital interface power supply subcircuits
*

X$DIGIFPWR 0 DIGIFPWR

**** 03/29/19 22:23:49 ********* PSpice 9.2 (Mar 2000) ******** ID# 1 ********

 * D:\GIT\MAI\viser\modeling\half_bridge\Shevcov\Nik\Sxema5IzmenitVuxod.sch


 ****     Diode MODEL PARAMETERS


******************************************************************************




               Dbreak          X_U1.x1.dn      
          IS   10.000000E-15   10.000000E-15 
          RS     .1                          
         CJO  100.000000E-15                 


**** 03/29/19 22:23:49 ********* PSpice 9.2 (Mar 2000) ******** ID# 1 ********

 * D:\GIT\MAI\viser\modeling\half_bridge\Shevcov\Nik\Sxema5IzmenitVuxod.sch


 ****     BJT MODEL PARAMETERS


******************************************************************************




               q_pwm           
               NPN             
          IS    1.340000E-15 
          BF   65.62         
          NF    1            
         VAF   74.03         
         IKF     .5385       
         ISE   19.480000E-15 
          NE    1.208        
          BR    9.715        
          NR    1            
          RB   10            
          RC    9            
         CJE    2.010000E-12 
         MJE     .377        
         CJC    1.393000E-12 
         MJC     .3416       
          TF  408.800000E-12 
         XTF    3            
         VTF    1.7          
         ITF     .6          
          TR  100.000000E-12 
         XTB    1.5          
          CN    2.42         
           D     .87         


**** 03/29/19 22:23:49 ********* PSpice 9.2 (Mar 2000) ******** ID# 1 ********

 * D:\GIT\MAI\viser\modeling\half_bridge\Shevcov\Nik\Sxema5IzmenitVuxod.sch


 ****     MOSFET MODEL PARAMETERS


******************************************************************************




               IRF840          
               NMOS            
       LEVEL    3            
           L    2.000000E-06 
           W     .68         
         VTO    3.879        
          KP   20.850000E-06 
       GAMMA    0            
         PHI     .6          
      LAMBDA    0            
          RD     .6703       
          RS    6.382000E-03 
          RG     .6038       
         RDS    2.222000E+06 
          IS   56.030000E-12 
          JS    0            
          PB     .8          
        PBSW     .8          
         CBD    1.415000E-09 
          CJ    0            
        CJSW    0            
          TT  710.000000E-09 
        CGSO    1.625000E-09 
        CGDO  133.400000E-12 
        CGBO    0            
         TOX  100.000000E-09 
          XJ    0            
       UCRIT   10.000000E+03 
       DELTA    0            
         ETA    0            
      DIOMOD    1            
         VFB    0            
        LETA    0            
        WETA    0            
          U0    0            
        TEMP    0            
         VDD    0            
       XPART    0            


**** 03/29/19 22:23:49 ********* PSpice 9.2 (Mar 2000) ******** ID# 1 ********

 * D:\GIT\MAI\viser\modeling\half_bridge\Shevcov\Nik\Sxema5IzmenitVuxod.sch


 ****     Voltage Controlled Switch MODEL PARAMETERS


******************************************************************************




               X_U1.sofferr    X_U1.soffmod    
         RON   50             100            
        ROFF  100.000000E+06  100.000000E+06 
         VON     .1              .1          
        VOFF     .9              .9          


**** 03/29/19 22:23:49 ********* PSpice 9.2 (Mar 2000) ******** ID# 1 ********

 * D:\GIT\MAI\viser\modeling\half_bridge\Shevcov\Nik\Sxema5IzmenitVuxod.sch


 ****     Current Controlled Switch MODEL PARAMETERS


******************************************************************************




               X_U1.x119.x2.isw184s 
         RON    1            
        ROFF  100.000000E+06 
         ION    1            
        IOFF     .9          


**** 03/29/19 22:23:49 ********* PSpice 9.2 (Mar 2000) ******** ID# 1 ********

 * D:\GIT\MAI\viser\modeling\half_bridge\Shevcov\Nik\Sxema5IzmenitVuxod.sch


 ****     Digital Input MODEL PARAMETERS


******************************************************************************




               dincone         din74s_o1       
        FILE DSO_DTOA        DSO_DTOA        
      FORMAT    6               6            
    TIMESTEP  100.000000E-12  100.000000E-12 
         CLO                    1.000000E-12 
         CHI                    1.000000E-12 
      S0NAME 0               0               
       S0TSW    3.500000E-09  100.000000E-12 
       S0RLO    1.000000E+03     .1          
       S0RHI    1              10.000000E+03 
      S1NAME 1               1               
       S1TSW    5.500000E-09  100.000000E-12 
       S1RLO    1             200.000000E+03 
       S1RHI    1.000000E+03  200.000000E+03 
      S2NAME X               x               
       S2TSW    3.500000E-09  100.000000E-12 
       S2RLO   42.9            34.6          
       S2RHI  116              98.4          
      S3NAME R               z               
       S3TSW    3.500000E-09  100.000000E-12 
       S3RLO   42.9           200.000000E+03 
       S3RHI  116             200.000000E+03 
      S4NAME F               R               
       S4TSW    3.500000E-09  100.000000E-12 
       S4RLO   42.9            34.6          
       S4RHI  116              98.4          
      S5NAME Z               F               
       S5TSW    3.500000E-09  100.000000E-12 
       S5RLO  200.000000E+03   34.6          
       S5RHI  200.000000E+03   98.4          


**** 03/29/19 22:23:49 ********* PSpice 9.2 (Mar 2000) ******** ID# 1 ********

 * D:\GIT\MAI\viser\modeling\half_bridge\Shevcov\Nik\Sxema5IzmenitVuxod.sch


 ****     Digital Output MODEL PARAMETERS


******************************************************************************




               X_U1.uvcomp     X_U1.compmod    X_U1.x15.cmp    
        FILE DSO_ATOD        DSO_ATOD        DSO_ATOD        
      FORMAT    6               6               6            
     CHGONLY    1               1               1            
    TIMESTEP  100.000000E-12  100.000000E-12  100.000000E-12 
      S0NAME 0               0               0               
       S0VHI  100                                            
       S0VLO   10            -300             -20.000000E+03 
      S1NAME 1               1               1               
       S1VHI   16             300              20.000000E+03 
       S1VLO  -30                                            


**** 03/29/19 22:23:49 ********* PSpice 9.2 (Mar 2000) ******** ID# 1 ********

 * D:\GIT\MAI\viser\modeling\half_bridge\Shevcov\Nik\Sxema5IzmenitVuxod.sch


 ****     Digital Gate MODEL PARAMETERS


******************************************************************************




               X_U1.x119.d0_gate1              d0_gate         
      TPLHMN   16.000000E-09                    0            
      TPLHTY   40.000000E-09                    0            
      TPLHMX   64.000000E-09                    0            
      TPHLMN   16.000000E-09                    0            
      TPHLTY   40.000000E-09                    0            
      TPHLMX   64.000000E-09                    0            


**** 03/29/19 22:23:49 ********* PSpice 9.2 (Mar 2000) ******** ID# 1 ********

 * D:\GIT\MAI\viser\modeling\half_bridge\Shevcov\Nik\Sxema5IzmenitVuxod.sch


 ****     Digital Edge Triggered FF MODEL PARAMETERS


******************************************************************************




               d0_eff          
  TPCLKQLHMN    0            
  TPCLKQLHTY    0            
  TPCLKQLHMX    0            
  TPCLKQHLMN    0            
  TPCLKQHLTY    0            
  TPCLKQHLMX    0            
   TPPCQLHMN    0            
   TPPCQLHTY    0            
   TPPCQLHMX    0            
   TPPCQHLMN    0            
   TPPCQHLTY    0            
   TPPCQHLMX    0            
    TWCLKLMN    0            
    TWCLKLTY    0            
    TWCLKLMX    0            
    TWCLKHMN    0            
    TWCLKHTY    0            
    TWCLKHMX    0            
     TWPCLMN    0            
     TWPCLTY    0            
     TWPCLMX    0            
   TSUDCLKMN    0            
   TSUDCLKTY    0            
   TSUDCLKMX    0            
 TSUPCCLKHMN    0            
 TSUPCCLKHTY    0            
 TSUPCCLKHMX    0            
    THDCLKMN    0            
    THDCLKTY    0            
    THDCLKMX    0            
  TSUCECLKMN    0            
  TSUCECLKTY    0            
  TSUCECLKMX    0            
   THCECLKMN    0            
   THCECLKTY    0            
   THCECLKMX    0            


**** 03/29/19 22:23:49 ********* PSpice 9.2 (Mar 2000) ******** ID# 1 ********

 * D:\GIT\MAI\viser\modeling\half_bridge\Shevcov\Nik\Sxema5IzmenitVuxod.sch


 ****     Digital Gated FF MODEL PARAMETERS


******************************************************************************




               d0_gff          
    TPDQLHMN    0            
    TPDQLHTY    0            
    TPDQLHMX    0            
    TPDQHLMN    0            
    TPDQHLTY    0            
    TPDQHLMX    0            
    TPGQLHMN    0            
    TPGQLHTY    0            
    TPGQLHMX    0            
    TPGQHLMN    0            
    TPGQHLTY    0            
    TPGQHLMX    0            
   TPPCQLHMN    0            
   TPPCQLHTY    0            
   TPPCQLHMX    0            
   TPPCQHLMN    0            
   TPPCQHLTY    0            
   TPPCQHLMX    0            
      TWGHMN    0            
      TWGHTY    0            
      TWGHMX    0            
     TWPCLMN    0            
     TWPCLTY    0            
     TWPCLMX    0            
     TSUDGMN    0            
     TSUDGTY    0            
     TSUDGMX    0            
   TSUPCGHMN    0            
   TSUPCGHTY    0            
   TSUPCGHMX    0            
      THDGMN    0            
      THDGTY    0            
      THDGMX    0            


**** 03/29/19 22:23:49 ********* PSpice 9.2 (Mar 2000) ******** ID# 1 ********

 * D:\GIT\MAI\viser\modeling\half_bridge\Shevcov\Nik\Sxema5IzmenitVuxod.sch


 ****     Digital Delay Line MODEL PARAMETERS


******************************************************************************




               X_U1.dlmod      X_U1.dlmod1     
       DLYMN    0               0            
       DLYTY    5.000000E-09  150.000000E-09 
       DLYMX    5.000000E-09  150.000000E-09 


**** 03/29/19 22:23:49 ********* PSpice 9.2 (Mar 2000) ******** ID# 1 ********

 * D:\GIT\MAI\viser\modeling\half_bridge\Shevcov\Nik\Sxema5IzmenitVuxod.sch


 ****     Digital IO  MODEL PARAMETERS


******************************************************************************




               io_std          io_stm          io_pwm_oc       io_s_oc         
        DRVL  104               0              60.6            60.6          
        DRVH   96.4             0               1.000000E+06    1.000000E+06 
       AtoD1 AtoD_STD                        atod_s          AtoD_S          
       AtoD2 AtoD_STD_NX                     atod_s_nx       AtoD_S_NX       
       AtoD3 AtoD_STD                        atod_s_e        AtoD_S          
       AtoD4 AtoD_STD_NX                     atod_s_nxe      AtoD_S_NX       
       DtoA1 DtoA_STD        DtoA_STM        dtoa_s_o1       DtoA_S_OC       
       DtoA2 DtoA_STD        DtoA_STM        dtoa_s_o1       DtoA_S_OC       
       DtoA3 DtoA_STD        DtoA_STM        dtoa_s_o1       DtoA_S_OC       
       DtoA4 DtoA_STD        DtoA_STM        dtoa_s_o1       DtoA_S_OC       
      TSWHL1    1.511000E-09                                    1.305000E-09 
      TSWHL2    1.487000E-09                                    1.306000E-09 
      TSWHL3    1.511000E-09                                    1.305000E-09 
      TSWHL4    1.487000E-09                                    1.306000E-09 
      TSWLH1    3.517000E-09                                  483.000000E-12 
      TSWLH2    3.564000E-09                                  471.000000E-12 
      TSWLH3    3.517000E-09                                  483.000000E-12 
      TSWLH4    3.564000E-09                                  471.000000E-12 
       TPWRT  100.000000E+03  100.000000E+03  100.000000E+03  100.000000E+03 


**** 03/29/19 22:23:49 ********* PSpice 9.2 (Mar 2000) ******** ID# 1 ********

 * D:\GIT\MAI\viser\modeling\half_bridge\Shevcov\Nik\Sxema5IzmenitVuxod.sch


 ****     INITIAL TRANSIENT SOLUTION       TEMPERATURE =   27.000 DEG C


******************************************************************************



 NODE   VOLTAGE     NODE   VOLTAGE     NODE   VOLTAGE     NODE   VOLTAGE


($G_DGND)    0.0000                   ($G_DPWR)    5.0000                       

($N_0001)    -.1677                   ($N_0002)    -.3354                       

($N_0003)    -.3354                   ($N_0004)    -.1677                       

($N_0005)    -.3354                   ($N_0006)    -.3354                       

($N_0007)-48.10E-06                   ($N_0008)-48.10E-06                       

($N_0009)     .0050                   ($N_0010)    0.0000                       

($N_0011)     .0061                   ($N_0012)     .0669                       

($N_0013)     .0061                   ($N_0014) 70.20E-27                       

($N_0015)    0.0000                   ($N_0016)    4.3943                       

($N_0017)   -2.1267                   ($N_0018)   -1.5378                       

($N_0020)   -2.1159                   ($N_0021)    0.0000                       

($N_0022)-70.20E-27                   ($N_0023)     .0669                       

(X_U1.8a)     .0050                   (X_U1.8b) 2.498E-12                       

(X_U1.p7)     .7000                   (X_U1.eao)     .9971                      

(X_U1.one)    1.0000                  (X_U1.ref)     .0050                      

(X_U1.DGND)    0.0000                 (X_U1.DPWR)    5.0000                     

(X_U1.eaoa)     .9971                 (X_U1.ramp)    1.0000                     

(X_U1.x1.4)   15.0000                 (X_U1.x1.5)   13.6300                     

(X_U1.x1.6)   13.0000                 (X_U1.x1.7)    1.0000                     

(X_U1.x1.10)   13.6300                (X_U1.intref)    2.5000                   

(X_U1.x119.31)    -.0173              (X_U1.x119.33)   -1.5374                  

(X_U1.xll1.1a)     .0050              (X_U1.xll2.1a) 2.498E-12                  

(X_U1.uvcompaa) 999.0E-06             (X_U1.x119.14a)   -1.5378                 

(X_U1.x15.offs) 100.0E-06             (X_U1.x15.ramp1)    1.0000                

(X_U1.xload3.1a)-48.10E-06            (X_U1.x119.x2.140)   -2.1267              

(X_U1.x119.x2.143)    0.0000          (X_U1.x119.x2.731)   -1.0868              

(X_U1.x119.x2.733)   -1.5375          (X_U1.x119.x2.735)   -2.5378              

(X_U1.x15.pos_neg) 100.0E-06          



 DGTL NODE : STATE  DGTL NODE : STATE  DGTL NODE : STATE  DGTL NODE : STATE


( X_U1.qb) : 1     ( X_U1.87) : 0     (X_U1.setz) : 1    (X_U1.reset) : 0       

( X_U1.20) : 0     (X_U1.qbd) : 1     (X_U1.x119.31$DtoA) : 0                   

(X_U1.uvlo) : 1    ( X_U1.21) : 1     (X_U1.x119.33$DtoA) : Z                   

(X_U1.222) : 1     (  X_U1.q) : 0     (X_U1.set) : 1     




    VOLTAGE SOURCE CURRENTS
    NAME         CURRENT

    V_V1         2.220E-16
    X_U1.v8a     4.995E-12
    X_U1.v2p5   -2.433E-06
    X_U1.v_clkset   0.000E+00
    X_U1.v1     -9.990E-04
    X_U1.vp7     7.389E-02
    X_U1.xdigpwr.VDPWR  -5.394E-04
    X_U1.xdigpwr.VDGND  -1.951E-01
    X_U1.x1.v4   3.796E-04
    X_U1.x1.vo  -3.796E-04
    X_U1.x1.vn   1.264E-11
    X_U1.x15.vser   0.000E+00
    X_U1.x15.vofset  -1.000E-04
    X_U1.x119.x2.vs1  -2.339E-02
    X_U1.x119.x2.vs3  -1.038E-05
    X_U1.x119.x2.vdrop  -4.478E-02
    X$DIGIFPWR.VDPWR  -5.000E-06
    X$DIGIFPWR.VDGND  -5.000E-06

    TOTAL POWER DISSIPATION  -8.14E-03  WATTS



          JOB CONCLUDED

          TOTAL JOB TIME            3.15
